Circuit: * A:\Documentos\Formuna-SAE-UTN-FRBA\Sim\APPS Transfer Funtions.asc

Direct Newton iteration failed to find .op point.  (Use ".option noopiter" to skip.)
Starting Gmin stepping
Gmin = 10
vernier = 0.5
vernier = 0.25
vernier = 0.125
Gmin = 5.5165
vernier = 0.0625
vernier = 0.03125
vernier = 0.015625
vernier = 0.0078125
Gmin = 5.42104
vernier = 0.00390625
vernier = 0.00195313
vernier = 0.000976563
Gmin = 5.41047
vernier = 0.000488281
Gmin = 0
Gmin stepping failed

Starting source stepping with srcstepmethod=0
Source Step = 3.0303%
Source Step = 33.3333%
Source Step = 63.6364%
Source Step = 93.9394%
Source stepping succeeded in finding the operating point.

Semiconductor Device Operating Points:
                        --- Diodes ---
Name:    d:u2:p      d:u2:ln     d:u2:lp     d:u2:e      d:u2:c
Model:    u2:dx       u2:dx       u2:dx       u2:dx       u2:dx
Id:     -4.80e-11   -2.94e-11   -2.06e-11   -6.53e-12   -3.71e-11
Vd:     -4.80e+01   -2.94e+01   -2.06e+01   -6.53e+00   -3.71e+01
Req:     1.00e+12    1.00e+12    1.00e+12    1.00e+12    1.00e+12
CAP:     0.00e+00    0.00e+00    0.00e+00    0.00e+00    0.00e+00

Name:    d:u1:p      d:u1:ln     d:u1:lp     d:u1:e      d:u1:c
Model:    u1:dx       u1:dx       u1:dx       u1:dx       u1:dx
Id:     -4.80e-11   -2.88e-11   -2.12e-11   -7.22e-12   -3.64e-11
Vd:     -4.80e+01   -2.88e+01   -2.12e+01   -7.22e+00   -3.64e+01
Req:     1.00e+12    1.00e+12    1.00e+12    1.00e+12    1.00e+12
CAP:     0.00e+00    0.00e+00    0.00e+00    0.00e+00    0.00e+00

                        --- JFET Transistors ---
Name:    j:u2:2      j:u2:1      j:u1:2      j:u1:1
Model:    u2:jx       u2:jx       u1:jx       u1:jx
Id:     -1.07e-04   -1.07e-04   -1.07e-04   -1.07e-04
Vgs:     3.70e-01    3.70e-01    3.71e-01    3.72e-01
Vds:    -3.62e+00   -3.62e+00   -4.90e+00   -4.90e+00
Gm:      3.41e-04    3.40e-04    3.40e-04    3.39e-04
Gds:     0.00e+00    0.00e+00    0.00e+00    0.00e+00
Cgs:     0.00e+00    0.00e+00    0.00e+00    0.00e+00
Cgd:     0.00e+00    0.00e+00    0.00e+00    0.00e+00



Date: Mon Dec 29 18:57:17 2025
Total elapsed time: 28.277 seconds.

tnom = 27
temp = 27
method = trap
totiter = 1748
traniter = 0
tranpoints = 0
accept = 0
rejected = 0
matrix size = 56
fillins = 80
solver = Normal
Matrix Compiler1: 6.29 KB object code size
Matrix Compiler2: 5.93 KB object code size  1.0/1.0/[0.4]

